
**** 01/17/26 19:14:47 **** PSpice 23.1.0 (30 January 2024) *** ID# 0 ********

 ** Profile: "TPS40210-TPS40210"  [ c:\users\dylan\nixie-clock\simulation\flyback\flyback-pspicefiles\tps40210\tps40210.sim ] 


 ****     CIRCUIT DESCRIPTION


******************************************************************************




** Creating circuit file "TPS40210.cir" 
** WARNING: THIS AUTOMATICALLY GENERATED FILE MAY BE OVERWRITTEN BY SUBSEQUENT SIMULATIONS

*Libraries: 
* Profile Libraries :
* Local Libraries :
.LIB "../../../SBR1U400P1.spice.lib" 
.LIB "../../../p_se50paj.lib" 
.LIB "../../../dmt6030lfcl.lib" 
* From [PSPICE NETLIST] section of C:\cds_spb_home\cdssetup\OrCAD_PSpiceTIPSpice_Install\23.1.0\PSpice.ini file:
.lib "nom_pspti.lib" 
.lib "nom.lib" 

*Analysis directives: 
.TRAN  0 5m 0 
.OPTIONS ADVCONV
.OPTIONS FILEMODELSEARCH
.PROBE64 N([N22393])
.PROBE64 N([N22705])
.PROBE64 I1(X_U2)
.INC "..\TPS40210.net" 



**** INCLUDING TPS40210.net ****
* source FLYBACK
X_D3         N22461 N22631 Zener_parameterized PARAMS: VZT=25 RSF=100m
R_R5         N22801 N22795  1 TC=0,0 
R_R8         N23545 N22461  150k TC=0,0 
D_D1         N22377 N22393 SBR1U400P1 
R_R9         N23944 N22393  1Meg TC=0,0 
C_C4         0 N23087  1u  TC=0,0 
R_R1         0 N22393  9k TC=0,0 
C_C5         N23433 0  20n  TC=0,0 
L_L1         N22615 N22705  2.34u  
R_R10         0 N23944  3.9k TC=0,0 
R_R6         N22387 N22377  800 TC=0,0 
L_L2         0 N22637  150u  
R_R2         N22615 N22461  0.013 TC=0,0 
X_U2         N22705 N22801 N22959 DMT6030LFCL
R_R7         N22959 0  3m TC=0,0 
R_R3         N22637 N22473  0.818 TC=0,0 
C_C1         0 N22393  100n  TC=0,0 
X_U1         0 N22461 N23545 N23944 N23433 N22795 N23087 N24507 0 N22985 0
+  TPS40210-Q1_TRANS
Kn_K1         L_L1 L_L2     1
C_C3         N22393 N22387  30p  TC=0,0 
C_C6         0 N23545  470p  TC=0,0 
D_D2         N22705 N22631 BAS70 
L_L3         N22473 N22377  6u  
R_R11         N23944 N24514  150k TC=0,0 
C_C7         N24507 N24514  3n  TC=0,0 
V_V2         N22461 0  
+PWL 0 0 200u 5 
R_R12         N22959 N22985  1k TC=0,0 
C_C8         N22985 0  150p  TC=0,0 

**** RESUMING TPS40210.cir ****
.END

**** 01/17/26 19:14:47 **** PSpice 23.1.0 (30 January 2024) *** ID# 0 ********

 ** Profile: "TPS40210-TPS40210"  [ c:\users\dylan\nixie-clock\simulation\flyback\flyback-pspicefiles\tps40210\tps40210.sim ] 


 ****     Diode MODEL PARAMETERS


******************************************************************************




               SBR1U400P1      X_U2.DCGD       X_U2.DSUB       X_U2.DLIM       
          IS   70.000000E-09   10.000000E-15    1.650000E-09  100.000000E-06 
           N    1.25                            1.33                         
         ISR   20.000000E-09                                                 
         IKF  510.000000E-06                                                 
          BV  401                              64.03                         
         IBV   50.000000E-06                                                 
          RS     .05                            7.661000E-03                 
          TT   85.000000E-09                                                 
         CJO   65.000000E-12  150.200000E-12  300.000000E-12                 
          VJ     .41             .8              .9                          
           M     .41             .7595           .3                          
          EG     .75                                                         
         XTI                                    0                            
        TIKF     .1                                                          


               X_U1.XU3.XD2.DD X_U1.XU9.XU8.DCLAMP 
          IS    1.000000E-15   10.000000E-15 
           N     .5                          
          BV                   10            
         IBV                     .01         
          RS                   10            
          TT   10.000000E-12                 
         CJO    1.000000E-12                 


               X_U1.XU9.XU8.DMOD 
          IS   10.000000E-15 
          TT    1.000000E-09 
         CJO   10.000000E-12 


**** 01/17/26 19:14:47 **** PSpice 23.1.0 (30 January 2024) *** ID# 0 ********

 ** Profile: "TPS40210-TPS40210"  [ c:\users\dylan\nixie-clock\simulation\flyback\flyback-pspicefiles\tps40210\tps40210.sim ] 


 ****     BJT MODEL PARAMETERS


******************************************************************************




               X_U1.XU9.XU8.QPMOD 
               PNP             
       LEVEL    1            
          IS  100.000000E-18 
          BF  100            
          NF    1            
          BR    1            
          NR    1            
         ISS    0            
          RE    0            
          RC    0            
         CJE    0            
         VJE     .75         
         CJC    0            
         VJC     .75         
         MJC     .33         
        XCJC    1            
         CJS    0            
         VJS     .75         
          KF    0            
          AF    1            
          CN    2.2          
           D     .52         


**** 01/17/26 19:14:47 **** PSpice 23.1.0 (30 January 2024) *** ID# 0 ********

 ** Profile: "TPS40210-TPS40210"  [ c:\users\dylan\nixie-clock\simulation\flyback\flyback-pspicefiles\tps40210\tps40210.sim ] 


 ****     MOSFET MODEL PARAMETERS


******************************************************************************




               X_U2.NMOS       
               NMOS            
       LEVEL    3            
           L  100.000000E-06 
           W  100.000000E-06 
         VTO    1.812        
          KP   29            
       GAMMA     .527625     
         PHI     .576325     
      LAMBDA    0            
          IS    0            
          JS    0            
          PB     .8          
        PBSW     .8          
          CJ  101.851000E-06 
        CJSW    0            
        CGSO    0            
        CGDO    0            
        CGBO    0            
        NSUB    1.000000E+15 
         TOX  100.000000E-09 
          XJ    0            
       UCRIT   10.000000E+03 
        VMAX  100.000000E+03 
         ETA    0            
      DIOMOD    1            
         VFB    0            
        LETA    0            
        WETA    0            
          U0  400            
        TEMP    0            
         VDD    5            
       XPART    0            


**** 01/17/26 19:14:47 **** PSpice 23.1.0 (30 January 2024) *** ID# 0 ********

 ** Profile: "TPS40210-TPS40210"  [ c:\users\dylan\nixie-clock\simulation\flyback\flyback-pspicefiles\tps40210\tps40210.sim ] 


 ****     Voltage Controlled Switch MODEL PARAMETERS


******************************************************************************




               X_U1.S_VSWITCH_1 
         RON    1.000000E+09 
        ROFF    5            
         VON    3            
        VOFF    1            


               X_U1.S_VSWITCH_2 
         RON    5            
        ROFF    1.000000E+09 
         VON    3            
        VOFF    1            


               X_U1.S_VSWITCH_3 
         RON    1.000000E+09 
        ROFF   10            
         VON    2.5          
        VOFF    0            


               X_U1.XU3.S_VSWITCH_1 
         RON  500.000000E+03 
        ROFF    1.000000E+09 
         VON    3            
        VOFF    1            


               X_U1.XU3.S_VSWITCH_2 
         RON    1.500000E+06 
        ROFF    1.000000E+09 
         VON    3            
        VOFF    1            


               X_U1.XU10.S_VSWITCH_1 
         RON    1            
        ROFF    1.000000E+09 
         VON    3            
        VOFF    1            


**** 01/17/26 19:14:47 **** PSpice 23.1.0 (30 January 2024) *** ID# 0 ********

 ** Profile: "TPS40210-TPS40210"  [ c:\users\dylan\nixie-clock\simulation\flyback\flyback-pspicefiles\tps40210\tps40210.sim ] 


 ****     INITIAL TRANSIENT SOLUTION       TEMPERATURE =   27.000 DEG C


******************************************************************************



 NODE   VOLTAGE     NODE   VOLTAGE     NODE   VOLTAGE     NODE   VOLTAGE


(N22377)-10.30E-12 (N22387)-10.30E-12 (N22393)-4.934E-06 (N22461)    0.0000     

(N22473)-10.30E-12 (N22615) 289.1E-15 (N22631) 428.6E-09 (N22637)    0.0000     

(N22705) 289.1E-15 (N22795) 3.442E-24 (N22801) 4.131E-24 (N22959) 41.69E-24     

(N22985) 41.69E-24 (N23087)    0.0000 (N23433)    0.0000 (N23545)    0.0000     

(N23944)-565.8E-06 (N24507)     .0016 (N24514)-565.8E-06 (X_D3.1)  -24.5050     

(X_D3.3)   24.5050 (X_D3.9)-67.52E-15 (X_U2.1) 289.1E-15 (X_U2.2) 5.088E-24     

(X_U2.3) 43.08E-24 (X_U1.11)    0.0000                   (X_U1.12)    0.0000    

(X_U1.13)   -1.1657                   (X_U1.14)    0.0000                       

(X_U1.15)   -1.1657                   (X_U1.16)    0.0000                       

(X_U1.17) 21.40E-27                   (X_U1.18)    0.0000                       

(X_U1.19)    1.0000                   (X_U1.20)     .0016                       

(X_U1.21)   -1.1657                   (X_U1.22)    4.9999                       

(X_U2.12)-289.1E-15                   (X_U2.13)-1.114E-15                       

(X_U2.14)    0.0000                   (X_U2.15)-288.0E-15                       

(X_U1.XU1.24)   -1.3000               (X_U1.XU1.25)    0.0000                   

(X_U1.XU1.26)    0.0000               (X_U1.XU2.39)    0.0000                   

(X_U1.XU2.40)    0.0000               (X_U1.XU3.27)    0.0000                   

(X_U1.XU3.28)    5.0000               (X_U1.XU3.29)    0.0000                   

(X_U1.XU3.30)    0.0000               (X_U1.XU3.31)    0.0000                   

(X_U1.XU3.32)    5.0000               (X_U1.XU3.33)    5.0000                   

(X_U1.XU5.41)    0.0000               (X_U1.XU5.42)     .7975                   

(X_U1.XU5.43)    0.0000               (X_U1.XU5.44)    0.0000                   

(X_U1.XU6.45)    0.0000               (X_U1.XU6.46)    0.0000                   

(X_U1.XU6.47)    0.0000               (X_U1.XU6.48)    0.0000                   

(X_U1.XU6.49)    0.0000               (X_U1.XU6.50)    4.9999                   

(X_U1.XU1.N27)    0.0000              (X_U1.XU10.34) 41.69E-24                  

(X_U1.XU10.35)    0.0000              (X_U1.XU10.36) 500.0E-09                  

(X_U1.XU10.37)    5.0000              (X_U1.XU10.38) 5.500E-06                  

(X_U1.XU3.QFF)    4.9999              (X_U1.XU3.XU1.5)    0.0000                

(X_U1.XU3.XU2.5)    0.0000            (X_U1.XU5.XU1.5)    0.0000                

(X_U1.XU5.XU2.5)    0.0000            (X_U1.XU6.XU1.5)    0.0000                

(X_U1.XU7.XU7.4)   -1.1657            (X_U1.XU9.XU8.2)    -.6007                

(X_U1.XU9.XU8.5)    -.6007            (X_U1.XU9.XU8.7)    7.4000                

(X_U1.XU3.XU3.10)    0.0000           (X_U1.XU3.XU3.20)    0.0000               

(X_U1.XU3.XU4.YI)    5.0000           (X_U1.XU3.XU4.YP)    5.0000               

(X_U1.XU3.XU5.YI)    5.0000           (X_U1.XU3.XU5.YP)    5.0000               

(X_U1.XU3.XU6.YI)    0.0000           (X_U1.XU3.XU6.YP)    0.0000               

(X_U1.XU3.XU7.YI)    5.0000           (X_U1.XU3.XU7.YP)    5.0000               

(X_U1.XU4.XSW1.1)    4.2500           (X_U1.XU5.XSW1.1)    2.4750               

(X_U1.XU9.XU8.11)    -.6007           (X_U1.XU9.XU8.13)    -.6551               

(X_U1.XU9.XU8.16)    -.0604           (X_U1.XU3.XU4.YPP)    5.0000              

(X_U1.XU3.XU5.YPP)    5.0000          (X_U1.XU3.XU6.YPP)    0.0000              

(X_U1.XU3.XU7.YPP)    5.0000          (X_U1.XU4.XSW1.CN)    4.2500              

(X_U1.XU5.XSW1.CN)    2.4750          (X_U1.XU5.XU12.10)    0.0000              

(X_U1.XU5.XU12.20)    0.0000          (X_U1.XU6.XU13.YI)    0.0000              

(X_U1.XU6.XU13.YP)    0.0000          (X_U1.XU6.XU14.YI)    0.0000              

(X_U1.XU6.XU14.YP)    0.0000          (X_U1.XU6.XU15.YI)    0.0000              

(X_U1.XU6.XU15.YP)    0.0000          (X_U1.XU6.XU16.YI)    0.0000              

(X_U1.XU6.XU16.YP)    0.0000          (X_U1.XU6.XU17.10)    0.0000              

(X_U1.XU6.XU17.20)    0.0000          (X_U1.XU6.XU13.YPP)    0.0000             

(X_U1.XU6.XU14.YPP)    0.0000         (X_U1.XU6.XU15.YPP)    0.0000             

(X_U1.XU6.XU16.YPP)    0.0000         




    VOLTAGE SOURCE CURRENTS
    NAME         CURRENT

    V_V2         2.366E-06
    X_U2.VFB    -3.994E-25
    X_U1.VS1     0.000E+00
    X_U1.XU1.VS2   0.000E+00
    X_U1.XU10.V3  -5.000E-09
    X_U1.XU9.XU8.V1  -1.500E-04
    X_U1.XU9.XU8.V4  -9.014E-06

    TOTAL POWER DISSIPATION   1.11E-03  WATTS


          JOB ABORTED

**** 01/17/26 19:14:47 **** PSpice 23.1.0 (30 January 2024) *** ID# 0 ********

 ** Profile: "TPS40210-TPS40210"  [ c:\users\dylan\nixie-clock\simulation\flyback\flyback-pspicefiles\tps40210\tps40210.sim ] 


 ****     JOB STATISTICS SUMMARY


******************************************************************************



  Total job time (using Solver 1)   =      104.13
